T048C 7737:324 SEGGER J-Link V6.34a Log File (0001ms, 19721ms total)
T048C 7737:324 DLL Compiled: Aug  8 2018 16:36:42 (0001ms, 19721ms total)
T048C 7737:324 Logging started @ 2018-09-19 16:38 (0001ms, 19721ms total)
T048C 7737:325 JLINK_SetWarnOutHandler(...) (0000ms, 19721ms total)
T048C 7737:325 JLINK_OpenEx(...)
Firmware: J-Link V9 compiled Apr 20 2018 16:47:26
Hardware: V9.40
S/N: 59403711
Feature(s): RDI, GDB, FlashDL, FlashBP, JFlash
TELNET listener socket opened on port 19021WEBSRV 
Starting webserver (0023ms, 19744ms total)
T048C 7737:325 WEBSRV Webserver running on local port 19080 (0023ms, 19744ms total)
T048C 7737:325   returns O.K. (0023ms, 19744ms total)
T048C 7737:349 JLINK_GetEmuCaps()  returns 0xB9FF7BBF (0000ms, 19744ms total)
T048C 7737:349 JLINK_TIF_GetAvailable(...) (0001ms, 19745ms total)
T048C 7737:350 JLINK_SetErrorOutHandler(...) (0000ms, 19745ms total)
T048C 7737:350 JLINK_ExecCommand("ProjectFile = "C:\Users\Administrator\Desktop\Cliet\Cliet\Project\JLinkSettings.ini"", ...).   returns 0x00 (0001ms, 19746ms total)
T048C 7737:351 JLINK_ExecCommand("Device = STM32F407ZETx", ...). Device "STM32F407ZE" selected.  returns 0x00 (0000ms, 19746ms total)
T048C 7737:351 JLINK_ExecCommand("DisableConnectionTimeout", ...).   returns 0x01 (0000ms, 19746ms total)
T048C 7737:351 JLINK_GetHardwareVersion()  returns 0x16F30 (0000ms, 19746ms total)
T048C 7737:351 JLINK_GetDLLVersion()  returns 63401 (0000ms, 19746ms total)
T048C 7737:351 JLINK_GetFirmwareString(...) (0000ms, 19746ms total)
T048C 7737:351 JLINK_GetDLLVersion()  returns 63401 (0000ms, 19746ms total)
T048C 7737:351 JLINK_GetCompileDateTime() (0000ms, 19746ms total)
T048C 7737:351 JLINK_GetFirmwareString(...) (0000ms, 19746ms total)
T048C 7737:352 JLINK_GetHardwareVersion()  returns 0x16F30 (0000ms, 19747ms total)
T048C 7737:352 JLINK_TIF_Select(JLINKARM_TIF_SWD)  returns 0x00 (0004ms, 19751ms total)
T048C 7737:356 JLINK_SetSpeed(50000) (0001ms, 19752ms total)
T048C 7737:357 JLINK_GetId() >0x10B TIF>Found SW-DP with ID 0x2BA01477 >0x0D TIF> >0x28 TIF> >0x0D TIF> >0x28 TIF> >0x0D TIF> >0x28 TIF> >0x0D TIF> >0x28 TIF> >0x0D TIF> >0x21 TIF> >0x0D TIF> >0x28 TIF> >0x0D TIF> >0x28 TIF> >0x0D TIF> >0x28 TIF> >0x0D TIF> >0x21 TIF> >0x0D TIF> >0x21 TIF> >0x0D TIF> >0x28 TIF> >0x0D TIF> >0x21 TIF> >0x0D TIF> >0x21 TIF> >0x0D TIF> >0x28 TIF> >0x0D TIF> >0x21 TIF> >0x0D TIF> >0x21 TIF> >0x0D TIF> >0x28 TIF> >0x0D TIF> >0x21 TIF> >0x0D TIF> >0x21 TIF> >0x0D TIF>
 >0x28 TIF> >0x0D TIF> >0x21 TIF> >0x0D TIF> >0x21 TIF> >0x0D TIF> >0x28 TIF> >0x0D TIF> >0x21 TIF> >0x0D TIF> >0x21 TIF> >0x10B TIF>Found SW-DP with ID 0x2BA01477 >0x0D TIF> >0x28 TIF> >0x0D TIF> >0x28 TIF> >0x0D TIF> >0x28 TIF> >0x0D TIF> >0x28 TIF> >0x0D TIF> >0x21 TIF> >0x0D TIF> >0x28 TIF>Scanning AP map to find all available APs >0x0D TIF> >0x28 TIF> >0x0D TIF> >0x21 TIF> >0x0D TIF> >0x21 TIF> >0x0D TIF> >0x28 TIF> >0x0D TIF> >0x21 TIF> >0x0D TIF> >0x21 TIF>
AP[1]: Stopped AP scan as end of AP map has been reachedAP[0]: AHB-AP (IDR: 0x24770011)Iterating through AP map to find AHB-AP to use >0x42 TIF> >0x28 TIF> >0x0D TIF> >0x28 TIF> >0x0D TIF> >0x21 TIF> >0x0D TIF> >0x21 TIF> >0x42 TIF> >0x28 TIF> >0x0D TIF> >0x28 TIF> >0x0D TIF> >0x28 TIF> >0x0D TIF> >0x21 TIF> >0x0D TIF> >0x21 TIF>AP[0]: Core foundAP[0]: AHB-AP ROM base: 0xE00FF000 >0x0D TIF> >0x28 TIF> >0x0D TIF> >0x28 TIF> >0x0D TIF> >0x28 TIF> >0x0D TIF> >0x21 TIF> >0x0D TIF> >0x21 TIF>
CPUID register: 0x410FC241. Implementer code: 0x41 (ARM)Found Cortex-M4 r0p1, Little endian. -- Max. mem block: 0x00010F28 -- CPU_ReadMem(4 bytes @ 0xE000EDF0) -- CPU_WriteMem(4 bytes @ 0xE000EDF0) -- CPU_ReadMem(4 bytes @ 0xE0002000)FPUnit: 6 code (BP) slots and 2 literal slots -- CPU_ReadMem(4 bytes @ 0xE000EDFC) -- CPU_WriteMem(4 bytes @ 0xE000EDFC) -- CPU_ReadMem(4 bytes @ 0xE0001000) -- CPU_WriteMem(4 bytes @ 0xE0001000) -- CPU_ReadMem(4 bytes @ 0xE000ED88) -- CPU_WriteMem(4 bytes @ 0xE000ED88)
 -- CPU_ReadMem(4 bytes @ 0xE000ED88) -- CPU_WriteMem(4 bytes @ 0xE000ED88)CoreSight components:ROMTbl[0] @ E00FF000 -- CPU_ReadMem(16 bytes @ 0xE00FF000) -- CPU_ReadMem(16 bytes @ 0xE000EFF0) -- CPU_ReadMem(16 bytes @ 0xE000EFE0)ROMTbl[0][0]: E000E000, CID: B105E00D, PID: 000BB00C SCS-M7 -- CPU_ReadMem(16 bytes @ 0xE0001FF0) -- CPU_ReadMem(16 bytes @ 0xE0001FE0)ROMTbl[0][1]: E0001000, CID: B105E00D, PID: 003BB002 DWT -- CPU_ReadMem(16 bytes @ 0xE0002FF0) -- CPU_ReadMem(16 bytes @ 0xE0002FE0)
ROMTbl[0][2]: E0002000, CID: B105E00D, PID: 002BB003 FPB -- CPU_ReadMem(16 bytes @ 0xE0000FF0) -- CPU_ReadMem(16 bytes @ 0xE0000FE0)ROMTbl[0][3]: E0000000, CID: B105E00D, PID: 003BB001 ITM -- CPU_ReadMem(16 bytes @ 0xE00FF010) -- CPU_ReadMem(16 bytes @ 0xE0040FF0) -- CPU_ReadMem(16 bytes @ 0xE0040FE0)ROMTbl[0][4]: E0040000, CID: B105900D, PID: 000BB9A1 TPIU -- CPU_ReadMem(16 bytes @ 0xE0041FF0) -- CPU_ReadMem(16 bytes @ 0xE0041FE0)ROMTbl[0][5]: E0041000, CID: B105900D, PID: 000BB925 ETM >0x0D TIF>
 >0x21 TIF>  returns 0x2BA01477 (0239ms, 19991ms total)
T048C 7737:596 JLINK_GetDLLVersion()  returns 63401 (0000ms, 19991ms total)
T048C 7737:596 JLINK_CORE_GetFound()  returns 0xE0000FF (0000ms, 19991ms total)
T048C 7737:596 JLINK_GetDebugInfo(0x100 = JLINKARM_ROM_TABLE_ADDR_INDEX) -- Value=0xE00FF000  returns 0x00 (0000ms, 19991ms total)
T048C 7737:596 JLINK_GetDebugInfo(0x100 = JLINKARM_ROM_TABLE_ADDR_INDEX) -- Value=0xE00FF000  returns 0x00 (0000ms, 19991ms total)
T048C 7737:596 JLINK_GetDebugInfo(0x101 = JLINKARM_DEBUG_INFO_ETM_ADDR_INDEX) -- Value=0xE0041000  returns 0x00 (0000ms, 19991ms total)
T048C 7737:596 JLINK_ReadMemEx(0xE0041FD0, 0x0020 Bytes, ..., Flags = 0x02000004) -- CPU_ReadMem(32 bytes @ 0xE0041FD0) - Data: 04 00 00 00 00 00 00 00 00 00 00 00 00 00 00 00 ...  returns 0x20 (0001ms, 19992ms total)
T048C 7737:597 JLINK_GetDebugInfo(0x102 = JLINKARM_DEBUG_INFO_MTB_ADDR_INDEX) -- Value=0x00000000  returns 0x00 (0000ms, 19992ms total)
T048C 7737:597 JLINK_GetDebugInfo(0x103 = JLINKARM_DEBUG_INFO_TPIU_ADDR_INDEX) -- Value=0xE0040000  returns 0x00 (0000ms, 19992ms total)
T048C 7737:597 JLINK_GetDebugInfo(0x104 = JLINKARM_DEBUG_INFO_ITM_ADDR_INDEX) -- Value=0xE0000000  returns 0x00 (0000ms, 19992ms total)
T048C 7737:597 JLINK_GetDebugInfo(0x105 = JLINKARM_DEBUG_INFO_DWT_ADDR_INDEX) -- Value=0xE0001000  returns 0x00 (0000ms, 19992ms total)
T048C 7737:597 JLINK_GetDebugInfo(0x106 = JLINKARM_DEBUG_INFO_FPB_ADDR_INDEX) -- Value=0xE0002000  returns 0x00 (0000ms, 19992ms total)
T048C 7737:597 JLINK_GetDebugInfo(0x107 = JLINKARM_DEBUG_INFO_NVIC_ADDR_INDEX) -- Value=0xE000E000  returns 0x00 (0000ms, 19992ms total)
T048C 7737:597 JLINK_GetDebugInfo(0x10C = JLINKARM_DEBUG_INFO_DBG_ADDR_INDEX) -- Value=0xE000EDF0  returns 0x00 (0000ms, 19992ms total)
T048C 7737:597 JLINK_GetDebugInfo(0x01 = Unknown) -- Value=0x00000001  returns 0x00 (0000ms, 19992ms total)
T048C 7737:597 JLINK_ReadMemU32(0xE000ED00, 0x0001 Items, ...) -- CPU_ReadMem(4 bytes @ 0xE000ED00) - Data: 41 C2 0F 41  returns 1 (0001ms, 19993ms total)
T048C 7737:598 JLINK_GetDebugInfo(0x10F = JLINKARM_DEBUG_INFO_HAS_CORTEX_M_SECURITY_EXT_INDEX) -- Value=0x00000000  returns 0x00 (0000ms, 19993ms total)
T048C 7737:598 JLINK_SetResetType(JLINKARM_CM3_RESET_TYPE_NORMAL)  returns JLINKARM_CM3_RESET_TYPE_NORMAL (0000ms, 19993ms total)
T048C 7737:598 JLINK_Reset() -- CPU is running -- CPU_WriteMem(4 bytes @ 0xE000EDF0) -- CPU is running -- CPU_WriteMem(4 bytes @ 0xE000EDFC)Reset: Halt core after reset via DEMCR.VC_CORERESET. >0x35 TIF>Reset: Reset device via AIRCR.SYSRESETREQ. -- CPU is running -- CPU_WriteMem(4 bytes @ 0xE000ED0C) >0x0D TIF> >0x28 TIF> -- CPU_ReadMem(4 bytes @ 0xE000EDF0) -- CPU_ReadMem(4 bytes @ 0xE000EDF0) -- CPU is running -- CPU_WriteMem(4 bytes @ 0xE000EDF0) -- CPU is running -- CPU_WriteMem(4 bytes @ 0xE000EDFC)
 -- CPU_ReadMem(4 bytes @ 0xE000EDF0) -- CPU_WriteMem(4 bytes @ 0xE0002000) -- CPU_ReadMem(4 bytes @ 0xE000EDFC) -- CPU_ReadMem(4 bytes @ 0xE0001000) (0073ms, 20066ms total)
T048C 7737:671 JLINK_ReadReg(R15 (PC))  returns 0x08000280 (0000ms, 20066ms total)
T048C 7737:671 JLINK_ReadReg(XPSR)  returns 0x01000000 (0000ms, 20066ms total)
T048C 7737:671 JLINK_Halt()  returns 0x00 (0000ms, 20066ms total)
T048C 7737:671 JLINK_ReadMemU32(0xE000EDF0, 0x0001 Items, ...) -- CPU_ReadMem(4 bytes @ 0xE000EDF0) - Data: 03 00 03 00  returns 1 (0001ms, 20067ms total)
T048C 7737:672 JLINK_WriteU32(0xE000EDF0, 0xA05F0003) -- CPU_WriteMem(4 bytes @ 0xE000EDF0)  returns 0 (0001ms, 20068ms total)
T048C 7737:673 JLINK_WriteU32(0xE000EDFC, 0x01000000) -- CPU_WriteMem(4 bytes @ 0xE000EDFC)  returns 0 (0001ms, 20069ms total)
T048C 7737:674 JLINK_GetHWStatus(...)  returns 0x00 (0001ms, 20070ms total)
T048C 7737:675 JLINK_GetNumBPUnits(Type = 0xFFFFFF00)  returns 0x06 (0000ms, 20070ms total)
T048C 7737:675 JLINK_GetNumBPUnits(Type = 0xF0)  returns 0x2000 (0000ms, 20070ms total)
T048C 7737:675 JLINK_GetNumWPUnits()  returns 0x04 (0000ms, 20070ms total)
T048C 7737:675 JLINK_GetSpeed()  returns 0x2EE0 (0000ms, 20070ms total)
T048C 7737:675 JLINK_ReadMemU32(0xE000E004, 0x0001 Items, ...) -- CPU_ReadMem(4 bytes @ 0xE000E004) - Data: 02 00 00 00  returns 1 (0001ms, 20071ms total)
T048C 7737:676 JLINK_ReadMemU32(0xE000E004, 0x0001 Items, ...) -- CPU_ReadMem(4 bytes @ 0xE000E004) - Data: 02 00 00 00  returns 1 (0001ms, 20072ms total)
T048C 7737:677 JLINK_WriteMemEx(0xE0001000, 0x001C Bytes, ..., Flags = 0x02000004) - Data: 01 00 00 00 00 00 00 00 00 00 00 00 00 00 00 00 ... -- CPU_WriteMem(28 bytes @ 0xE0001000)  returns 0x1C (0001ms, 20073ms total)
T048C 7737:678 JLINK_ReadReg(R15 (PC))  returns 0x08000280 (0000ms, 20073ms total)
T048C 7737:678 JLINK_ReadReg(XPSR)  returns 0x01000000 (0000ms, 20073ms total)
T048C 7737:680 JLINK_ReadMemEx(0xE0001004, 0x0004 Bytes, ..., Flags = 0x02000000) - Data: 00 00 00 00  returns 0x04 (0000ms, 20073ms total)
T048C 7737:873 JLINK_SetResetType(JLINKARM_CM3_RESET_TYPE_NORMAL)  returns JLINKARM_CM3_RESET_TYPE_NORMAL (0000ms, 20073ms total)
T048C 7737:873 JLINK_Reset() -- CPU_WriteMem(4 bytes @ 0xE000EDF0) -- CPU_WriteMem(4 bytes @ 0xE000EDFC)Reset: Halt core after reset via DEMCR.VC_CORERESET. >0x35 TIF>Reset: Reset device via AIRCR.SYSRESETREQ. -- CPU_WriteMem(4 bytes @ 0xE000ED0C) >0x0D TIF> >0x28 TIF> -- CPU_ReadMem(4 bytes @ 0xE000EDF0) -- CPU_ReadMem(4 bytes @ 0xE000EDF0) -- CPU_WriteMem(4 bytes @ 0xE000EDF0) -- CPU_WriteMem(4 bytes @ 0xE000EDFC) -- CPU_ReadMem(4 bytes @ 0xE000EDF0) -- CPU_WriteMem(4 bytes @ 0xE0002000)
 -- CPU_ReadMem(4 bytes @ 0xE000EDFC) -- CPU_ReadMem(4 bytes @ 0xE0001000) (0073ms, 20146ms total)
T048C 7737:946 JLINK_ReadReg(R15 (PC))  returns 0x08000280 (0000ms, 20146ms total)
T048C 7737:946 JLINK_ReadReg(XPSR)  returns 0x01000000 (0000ms, 20146ms total)
T048C 7738:041 JLINK_ReadMemEx(0x08000280, 0x003C Bytes, ..., Flags = 0x02000000) -- CPU_ReadMem(64 bytes @ 0x08000280) -- Updating C cache (64 bytes @ 0x08000280) -- Read from C cache (60 bytes @ 0x08000280) - Data: 09 48 80 47 09 48 00 47 FE E7 FE E7 FE E7 FE E7 ...  returns 0x3C (0002ms, 20148ms total)
T048C 7738:569 JLINK_ReadReg(R0)  returns 0x00000000 (0001ms, 20149ms total)
T048C 7738:570 JLINK_ReadReg(R1)  returns 0x00000000 (0000ms, 20149ms total)
T048C 7738:570 JLINK_ReadReg(R2)  returns 0x00000000 (0000ms, 20149ms total)
T048C 7738:570 JLINK_ReadReg(R3)  returns 0x00000000 (0000ms, 20149ms total)
T048C 7738:570 JLINK_ReadReg(R4)  returns 0x00000000 (0000ms, 20149ms total)
T048C 7738:570 JLINK_ReadReg(R5)  returns 0x00000000 (0000ms, 20149ms total)
T048C 7738:570 JLINK_ReadReg(R6)  returns 0x00000000 (0000ms, 20149ms total)
T048C 7738:570 JLINK_ReadReg(R7)  returns 0x00000000 (0000ms, 20149ms total)
T048C 7738:570 JLINK_ReadReg(R8)  returns 0x00000000 (0000ms, 20149ms total)
T048C 7738:570 JLINK_ReadReg(R9)  returns 0x00000000 (0001ms, 20150ms total)
T048C 7738:571 JLINK_ReadReg(R10)  returns 0x00000000 (0000ms, 20150ms total)
T048C 7738:571 JLINK_ReadReg(R11)  returns 0x00000000 (0000ms, 20150ms total)
T048C 7738:571 JLINK_ReadReg(R12)  returns 0x00000000 (0000ms, 20150ms total)
T048C 7738:571 JLINK_ReadReg(R13 (SP))  returns 0x2000B648 (0000ms, 20150ms total)
T048C 7738:571 JLINK_ReadReg(R14)  returns 0xFFFFFFFF (0000ms, 20150ms total)
T048C 7738:571 JLINK_ReadReg(R15 (PC))  returns 0x08000280 (0000ms, 20150ms total)
T048C 7738:571 JLINK_ReadReg(XPSR)  returns 0x01000000 (0000ms, 20150ms total)
T048C 7738:571 JLINK_ReadReg(MSP)  returns 0x2000B648 (0000ms, 20150ms total)
T048C 7738:571 JLINK_ReadReg(PSP)  returns 0x00000000 (0000ms, 20150ms total)
T048C 7738:571 JLINK_ReadReg(CFBP)  returns 0x00000000 (0000ms, 20150ms total)
T048C 7738:571 JLINK_ReadReg(FPSCR)  returns 0x00000000 (0002ms, 20152ms total)
T048C 7738:573 JLINK_ReadReg(FPS0)  returns 0x00000000 (0000ms, 20152ms total)
T048C 7738:573 JLINK_ReadReg(FPS1)  returns 0x00000000 (0000ms, 20152ms total)
T048C 7738:573 JLINK_ReadReg(FPS2)  returns 0x00000000 (0000ms, 20152ms total)
T048C 7738:573 JLINK_ReadReg(FPS3)  returns 0x00000000 (0000ms, 20152ms total)
T048C 7738:573 JLINK_ReadReg(FPS4)  returns 0x00000000 (0000ms, 20152ms total)
T048C 7738:573 JLINK_ReadReg(FPS5)  returns 0x00000000 (0000ms, 20152ms total)
T048C 7738:573 JLINK_ReadReg(FPS6)  returns 0x00000000 (0001ms, 20153ms total)
T048C 7738:574 JLINK_ReadReg(FPS7)  returns 0x00000000 (0000ms, 20153ms total)
T048C 7738:574 JLINK_ReadReg(FPS8)  returns 0x00000000 (0000ms, 20153ms total)
T048C 7738:574 JLINK_ReadReg(FPS9)  returns 0x00000000 (0000ms, 20153ms total)
T048C 7738:574 JLINK_ReadReg(FPS10)  returns 0x00000000 (0000ms, 20153ms total)
T048C 7738:574 JLINK_ReadReg(FPS11)  returns 0x00000000 (0000ms, 20153ms total)
T048C 7738:574 JLINK_ReadReg(FPS12)  returns 0x00000000 (0000ms, 20153ms total)
T048C 7738:574 JLINK_ReadReg(FPS13)  returns 0x00000000 (0000ms, 20153ms total)
T048C 7738:574 JLINK_ReadReg(FPS14)  returns 0x00000000 (0000ms, 20153ms total)
T048C 7738:574 JLINK_ReadReg(FPS15)  returns 0x00000000 (0000ms, 20153ms total)
T048C 7738:574 JLINK_ReadReg(FPS16)  returns 0x00000000 (0000ms, 20153ms total)
T048C 7738:574 JLINK_ReadReg(FPS17)  returns 0x00000000 (0000ms, 20153ms total)
T048C 7738:574 JLINK_ReadReg(FPS18)  returns 0x00000000 (0000ms, 20153ms total)
T048C 7738:574 JLINK_ReadReg(FPS19)  returns 0x00000000 (0000ms, 20153ms total)
T048C 7738:574 JLINK_ReadReg(FPS20)  returns 0x00000000 (0000ms, 20153ms total)
T048C 7738:574 JLINK_ReadReg(FPS21)  returns 0x00000000 (0000ms, 20153ms total)
T048C 7738:574 JLINK_ReadReg(FPS22)  returns 0x00000000 (0000ms, 20153ms total)
T048C 7738:574 JLINK_ReadReg(FPS23)  returns 0x00000000 (0000ms, 20153ms total)
T048C 7738:574 JLINK_ReadReg(FPS24)  returns 0x00000000 (0000ms, 20153ms total)
T048C 7738:574 JLINK_ReadReg(FPS25)  returns 0x00000000 (0000ms, 20153ms total)
T048C 7738:574 JLINK_ReadReg(FPS26)  returns 0x00000000 (0000ms, 20153ms total)
T048C 7738:574 JLINK_ReadReg(FPS27)  returns 0x00000000 (0000ms, 20153ms total)
T048C 7738:574 JLINK_ReadReg(FPS28)  returns 0x00000000 (0000ms, 20153ms total)
T048C 7738:574 JLINK_ReadReg(FPS29)  returns 0x00000000 (0000ms, 20153ms total)
T048C 7738:574 JLINK_ReadReg(FPS30)  returns 0x00000000 (0000ms, 20153ms total)
T048C 7738:574 JLINK_ReadReg(FPS31)  returns 0x00000000 (0000ms, 20153ms total)
T048C 7738:632 JLINK_ReadMemEx(0x200019F8, 0x0004 Bytes, ..., Flags = 0x02000000) -- CPU_ReadMem(64 bytes @ 0x200019C0) -- Updating C cache (64 bytes @ 0x200019C0) -- Read from C cache (4 bytes @ 0x200019F8) - Data: E0 19 00 20  returns 0x04 (0002ms, 20155ms total)
T048C 7738:634 JLINK_ReadMemEx(0x200019E4, 0x0002 Bytes, ..., Flags = 0x02000000) -- Read from C cache (2 bytes @ 0x200019E4) - Data: 00 00  returns 0x02 (0000ms, 20155ms total)
T048C 7738:636 JLINK_ReadMemEx(0x200019E2, 0x0002 Bytes, ..., Flags = 0x02000000) -- Read from C cache (2 bytes @ 0x200019E2) - Data: 00 00  returns 0x02 (0000ms, 20155ms total)
T19EC 7738:670 JLINK_ReadMemEx(0x08000280, 0x0002 Bytes, ..., Flags = 0x02000000) -- Read from C cache (2 bytes @ 0x08000280) - Data: 09 48  returns 0x02 (0000ms, 20155ms total)
T19EC 7738:670 JLINK_SetBPEx(Addr = 0x0800FE42, Type = 0xFFFFFFF2)  returns 0x00000001 (0000ms, 20155ms total)
T19EC 7738:670 JLINK_SetBPEx(Addr = 0x0800CB5C, Type = 0xFFFFFFF2)  returns 0x00000002 (0000ms, 20155ms total)
T19EC 7738:671 JLINK_SetBPEx(Addr = 0x0800F756, Type = 0xFFFFFFF2)  returns 0x00000003 (0000ms, 20156ms total)
T19EC 7738:671 JLINK_SetBPEx(Addr = 0x0800C404, Type = 0xFFFFFFF2)  returns 0x00000004 (0000ms, 20156ms total)
T19EC 7738:671 JLINK_Go() -- CPU_WriteMem(4 bytes @ 0xE0002000) -- CPU_WriteMem(4 bytes @ 0xE0002000) -- CPU_WriteMem(4 bytes @ 0xE0002000) -- CPU_WriteMem(4 bytes @ 0xE0002000) -- CPU_ReadMem(4 bytes @ 0xE0001000) -- CPU_WriteMem(4 bytes @ 0xE0002008) -- CPU_WriteMem(4 bytes @ 0xE000200C) -- CPU_WriteMem(4 bytes @ 0xE0002010) -- CPU_WriteMem(4 bytes @ 0xE0002014) -- CPU_WriteMem(4 bytes @ 0xE0002018) -- CPU_WriteMem(4 bytes @ 0xE000201C) -- CPU_WriteMem(4 bytes @ 0xE0001004) (0008ms, 20164ms total)
T19EC 7738:779 JLINK_IsHalted()  returns TRUE (0003ms, 20167ms total)
T19EC 7738:782 JLINK_Halt()  returns 0x00 (0000ms, 20164ms total)
T19EC 7738:782 JLINK_IsHalted()  returns TRUE (0000ms, 20164ms total)
T19EC 7738:782 JLINK_IsHalted()  returns TRUE (0000ms, 20164ms total)
T19EC 7738:782 JLINK_IsHalted()  returns TRUE (0000ms, 20164ms total)
T19EC 7738:782 JLINK_ReadReg(R15 (PC))  returns 0x0800FE42 (0000ms, 20164ms total)
T19EC 7738:782 JLINK_ReadReg(XPSR)  returns 0x01000000 (0000ms, 20164ms total)
T19EC 7738:782 JLINK_ClrBPEx(BPHandle = 0x00000001)  returns 0x00 (0000ms, 20164ms total)
T19EC 7738:782 JLINK_ClrBPEx(BPHandle = 0x00000002)  returns 0x00 (0000ms, 20164ms total)
T19EC 7738:782 JLINK_ClrBPEx(BPHandle = 0x00000003)  returns 0x00 (0000ms, 20164ms total)
T19EC 7738:782 JLINK_ClrBPEx(BPHandle = 0x00000004)  returns 0x00 (0000ms, 20164ms total)
T19EC 7738:782 JLINK_ReadMemU32(0xE000ED30, 0x0001 Items, ...) -- CPU_ReadMem(4 bytes @ 0xE000ED30) - Data: 02 00 00 00  returns 1 (0001ms, 20165ms total)
T19EC 7738:783 JLINK_ReadMemU32(0xE0001028, 0x0001 Items, ...) -- CPU_ReadMem(4 bytes @ 0xE0001028) - Data: 00 00 00 00  returns 1 (0001ms, 20166ms total)
T19EC 7738:784 JLINK_ReadMemU32(0xE0001038, 0x0001 Items, ...) -- CPU_ReadMem(4 bytes @ 0xE0001038) - Data: 00 02 00 00  returns 1 (0001ms, 20167ms total)
T19EC 7738:785 JLINK_ReadMemU32(0xE0001048, 0x0001 Items, ...) -- CPU_ReadMem(4 bytes @ 0xE0001048) - Data: 00 00 00 00  returns 1 (0001ms, 20168ms total)
T19EC 7738:786 JLINK_ReadMemU32(0xE0001058, 0x0001 Items, ...) -- CPU_ReadMem(4 bytes @ 0xE0001058) - Data: 00 00 00 00  returns 1 (0001ms, 20169ms total)
T19EC 7738:787 JLINK_ReadReg(R0)  returns 0x2000B048 (0000ms, 20169ms total)
T19EC 7738:787 JLINK_ReadReg(R1)  returns 0x2000B248 (0000ms, 20169ms total)
T19EC 7738:787 JLINK_ReadReg(R2)  returns 0x2000B248 (0000ms, 20169ms total)
T19EC 7738:787 JLINK_ReadReg(R3)  returns 0x2000B248 (0000ms, 20169ms total)
T19EC 7738:787 JLINK_ReadReg(R4)  returns 0x00000000 (0000ms, 20169ms total)
T19EC 7738:787 JLINK_ReadReg(R5)  returns 0x2000AFE4 (0000ms, 20169ms total)
T19EC 7738:787 JLINK_ReadReg(R6)  returns 0x00000000 (0000ms, 20169ms total)
T19EC 7738:787 JLINK_ReadReg(R7)  returns 0x00000000 (0000ms, 20169ms total)
T19EC 7738:787 JLINK_ReadReg(R8)  returns 0x00000000 (0000ms, 20169ms total)
T19EC 7738:787 JLINK_ReadReg(R9)  returns 0x00000000 (0000ms, 20169ms total)
T19EC 7738:787 JLINK_ReadReg(R10)  returns 0x0801C2A4 (0000ms, 20169ms total)
T19EC 7738:787 JLINK_ReadReg(R11)  returns 0x00000000 (0000ms, 20169ms total)
T19EC 7738:787 JLINK_ReadReg(R12)  returns 0x2000B058 (0000ms, 20169ms total)
T19EC 7738:787 JLINK_ReadReg(R13 (SP))  returns 0x2000B648 (0000ms, 20169ms total)
T19EC 7738:787 JLINK_ReadReg(R14)  returns 0x08000271 (0000ms, 20169ms total)
T19EC 7738:787 JLINK_ReadReg(R15 (PC))  returns 0x0800FE42 (0000ms, 20169ms total)
T19EC 7738:787 JLINK_ReadReg(XPSR)  returns 0x01000000 (0000ms, 20169ms total)
T19EC 7738:787 JLINK_ReadReg(MSP)  returns 0x2000B648 (0000ms, 20169ms total)
T19EC 7738:787 JLINK_ReadReg(PSP)  returns 0x00000000 (0000ms, 20169ms total)
T19EC 7738:787 JLINK_ReadReg(CFBP)  returns 0x04000000 (0000ms, 20169ms total)
T19EC 7738:787 JLINK_ReadReg(FPSCR)  returns 0x03000000 (0003ms, 20172ms total)
T19EC 7738:790 JLINK_ReadReg(FPS0)  returns 0x00000000 (0000ms, 20172ms total)
T19EC 7738:790 JLINK_ReadReg(FPS1)  returns 0x00000000 (0000ms, 20172ms total)
T19EC 7738:790 JLINK_ReadReg(FPS2)  returns 0x00000000 (0000ms, 20172ms total)
T19EC 7738:790 JLINK_ReadReg(FPS3)  returns 0x00000000 (0000ms, 20172ms total)
T19EC 7738:790 JLINK_ReadReg(FPS4)  returns 0x00000000 (0000ms, 20172ms total)
T19EC 7738:790 JLINK_ReadReg(FPS5)  returns 0x00000000 (0000ms, 20172ms total)
T19EC 7738:790 JLINK_ReadReg(FPS6)  returns 0x00000000 (0000ms, 20172ms total)
T19EC 7738:790 JLINK_ReadReg(FPS7)  returns 0x00000000 (0000ms, 20172ms total)
T19EC 7738:790 JLINK_ReadReg(FPS8)  returns 0x00000000 (0000ms, 20172ms total)
T19EC 7738:790 JLINK_ReadReg(FPS9)  returns 0x00000000 (0000ms, 20172ms total)
T19EC 7738:790 JLINK_ReadReg(FPS10)  returns 0x00000000 (0000ms, 20172ms total)
T19EC 7738:790 JLINK_ReadReg(FPS11)  returns 0x00000000 (0000ms, 20172ms total)
T19EC 7738:790 JLINK_ReadReg(FPS12)  returns 0x00000000 (0000ms, 20172ms total)
T19EC 7738:790 JLINK_ReadReg(FPS13)  returns 0x00000000 (0000ms, 20172ms total)
T19EC 7738:790 JLINK_ReadReg(FPS14)  returns 0x00000000 (0000ms, 20172ms total)
T19EC 7738:790 JLINK_ReadReg(FPS15)  returns 0x00000000 (0000ms, 20172ms total)
T19EC 7738:790 JLINK_ReadReg(FPS16)  returns 0x00000000 (0000ms, 20172ms total)
T19EC 7738:790 JLINK_ReadReg(FPS17)  returns 0x00000000 (0000ms, 20172ms total)
T19EC 7738:790 JLINK_ReadReg(FPS18)  returns 0x00000000 (0000ms, 20172ms total)
T19EC 7738:790 JLINK_ReadReg(FPS19)  returns 0x00000000 (0000ms, 20172ms total)
T19EC 7738:790 JLINK_ReadReg(FPS20)  returns 0x00000000 (0000ms, 20172ms total)
T19EC 7738:790 JLINK_ReadReg(FPS21)  returns 0x00000000 (0000ms, 20172ms total)
T19EC 7738:790 JLINK_ReadReg(FPS22)  returns 0x00000000 (0000ms, 20172ms total)
T19EC 7738:790 JLINK_ReadReg(FPS23)  returns 0x00000000 (0000ms, 20172ms total)
T19EC 7738:790 JLINK_ReadReg(FPS24)  returns 0x00000000 (0000ms, 20172ms total)
T19EC 7738:790 JLINK_ReadReg(FPS25)  returns 0x00000000 (0000ms, 20172ms total)
T19EC 7738:790 JLINK_ReadReg(FPS26)  returns 0x00000000 (0000ms, 20172ms total)
T19EC 7738:790 JLINK_ReadReg(FPS27)  returns 0x00000000 (0000ms, 20172ms total)
T19EC 7738:790 JLINK_ReadReg(FPS28)  returns 0x00000000 (0000ms, 20172ms total)
T19EC 7738:790 JLINK_ReadReg(FPS29)  returns 0x00000000 (0000ms, 20172ms total)
T19EC 7738:790 JLINK_ReadReg(FPS30)  returns 0x00000000 (0000ms, 20172ms total)
T19EC 7738:790 JLINK_ReadReg(FPS31)  returns 0x00000000 (0000ms, 20172ms total)
T048C 7738:796 JLINK_ReadMemEx(0x0800FE42, 0x0002 Bytes, ..., Flags = 0x02000000) -- CPU_ReadMem(64 bytes @ 0x0800FE40) -- Updating C cache (64 bytes @ 0x0800FE40) -- Read from C cache (2 bytes @ 0x0800FE42) - Data: 10 B5  returns 0x02 (0001ms, 20173ms total)
T048C 7738:797 JLINK_ReadMemEx(0x0800FE44, 0x003C Bytes, ..., Flags = 0x02000000) -- Read from C cache (60 bytes @ 0x0800FE44) - Data: F0 F7 3C FA 04 F0 16 FF 00 20 10 BD FE B5 1F 49 ...  returns 0x3C (0000ms, 20173ms total)
T048C 7748:501 JLINK_ReadMemEx(0x0800C728, 0x003C Bytes, ..., Flags = 0x02000000) -- CPU_ReadMem(128 bytes @ 0x0800C700) -- Updating C cache (128 bytes @ 0x0800C700) -- Read from C cache (60 bytes @ 0x0800C728) - Data: 10 68 88 42 02 D8 50 68 88 42 02 D2 4F F0 FF 30 ...  returns 0x3C (0002ms, 20175ms total)
T19EC 7752:191 JLINK_ReadMemEx(0x0800FE42, 0x0002 Bytes, ..., Flags = 0x02000000) -- Read from C cache (2 bytes @ 0x0800FE42) - Data: 10 B5  returns 0x02 (0000ms, 20175ms total)
T19EC 7752:191 JLINK_SetBPEx(Addr = 0x0800CB5C, Type = 0xFFFFFFF2)  returns 0x00000005 (0000ms, 20175ms total)
T19EC 7752:191 JLINK_SetBPEx(Addr = 0x0800F756, Type = 0xFFFFFFF2)  returns 0x00000006 (0000ms, 20175ms total)
T19EC 7752:191 JLINK_SetBPEx(Addr = 0x0800C404, Type = 0xFFFFFFF2)  returns 0x00000007 (0000ms, 20175ms total)
T19EC 7752:191 JLINK_SetBPEx(Addr = 0x0800C728, Type = 0xFFFFFFF2)  returns 0x00000008 (0000ms, 20175ms total)
T19EC 7752:191 JLINK_SetBPEx(Addr = 0x0800C74A, Type = 0xFFFFFFF2)  returns 0x00000009 (0000ms, 20175ms total)
T19EC 7752:191 JLINK_Go() -- CPU_WriteMem(4 bytes @ 0xE0002000) -- CPU_WriteMem(4 bytes @ 0xE0002000) -- CPU_WriteMem(4 bytes @ 0xE0002000) -- CPU_WriteMem(4 bytes @ 0xE0002000) -- CPU_WriteMem(4 bytes @ 0xE0002000) -- CPU_ReadMem(4 bytes @ 0xE0001000) -- CPU_WriteMem(4 bytes @ 0xE0002008) -- CPU_WriteMem(4 bytes @ 0xE000200C) -- CPU_WriteMem(4 bytes @ 0xE0002010) -- CPU_WriteMem(4 bytes @ 0xE0002014) -- CPU_WriteMem(4 bytes @ 0xE0002018) (0009ms, 20184ms total)
T19EC 7752:300 JLINK_IsHalted()  returns FALSE (0001ms, 20185ms total)
T19EC 7752:401 JLINK_IsHalted()  returns FALSE (0001ms, 20185ms total)
T19EC 7752:502 JLINK_IsHalted()  returns TRUE (0003ms, 20187ms total)
T19EC 7752:505 JLINK_Halt()  returns 0x00 (0000ms, 20184ms total)
T19EC 7752:505 JLINK_IsHalted()  returns TRUE (0000ms, 20184ms total)
T19EC 7752:505 JLINK_IsHalted()  returns TRUE (0000ms, 20184ms total)
T19EC 7752:505 JLINK_IsHalted()  returns TRUE (0000ms, 20184ms total)
T19EC 7752:505 JLINK_ReadReg(R15 (PC))  returns 0x0800C74A (0000ms, 20184ms total)
T19EC 7752:505 JLINK_ReadReg(XPSR)  returns 0x21000000 (0000ms, 20184ms total)
T19EC 7752:505 JLINK_ClrBPEx(BPHandle = 0x00000005)  returns 0x00 (0000ms, 20184ms total)
T19EC 7752:505 JLINK_ClrBPEx(BPHandle = 0x00000006)  returns 0x00 (0000ms, 20184ms total)
T19EC 7752:505 JLINK_ClrBPEx(BPHandle = 0x00000007)  returns 0x00 (0000ms, 20184ms total)
T19EC 7752:505 JLINK_ClrBPEx(BPHandle = 0x00000008)  returns 0x00 (0000ms, 20184ms total)
T19EC 7752:505 JLINK_ClrBPEx(BPHandle = 0x00000009)  returns 0x00 (0000ms, 20184ms total)
T19EC 7752:505 JLINK_ReadMemU32(0xE000ED30, 0x0001 Items, ...) -- CPU_ReadMem(4 bytes @ 0xE000ED30) - Data: 02 00 00 00  returns 1 (0001ms, 20185ms total)
T19EC 7752:506 JLINK_ReadMemU32(0xE0001028, 0x0001 Items, ...) -- CPU_ReadMem(4 bytes @ 0xE0001028) - Data: 00 00 00 00  returns 1 (0001ms, 20186ms total)
T19EC 7752:507 JLINK_ReadMemU32(0xE0001038, 0x0001 Items, ...) -- CPU_ReadMem(4 bytes @ 0xE0001038) - Data: 00 02 00 00  returns 1 (0001ms, 20187ms total)
T19EC 7752:508 JLINK_ReadMemU32(0xE0001048, 0x0001 Items, ...) -- CPU_ReadMem(4 bytes @ 0xE0001048) - Data: 00 00 00 00  returns 1 (0001ms, 20188ms total)
T19EC 7752:509 JLINK_ReadMemU32(0xE0001058, 0x0001 Items, ...) -- CPU_ReadMem(4 bytes @ 0xE0001058) - Data: 00 00 00 00  returns 1 (0001ms, 20189ms total)
T19EC 7752:510 JLINK_ReadReg(R0)  returns 0x20000384 (0000ms, 20189ms total)
T19EC 7752:510 JLINK_ReadReg(R1)  returns 0x0000D7A3 (0000ms, 20189ms total)
T19EC 7752:510 JLINK_ReadReg(R2)  returns 0x20000384 (0000ms, 20189ms total)
T19EC 7752:510 JLINK_ReadReg(R3)  returns 0x0801B9F0 (0000ms, 20189ms total)
T19EC 7752:510 JLINK_ReadReg(R4)  returns 0x20000384 (0000ms, 20189ms total)
T19EC 7752:510 JLINK_ReadReg(R5)  returns 0x00000000 (0000ms, 20189ms total)
T19EC 7752:510 JLINK_ReadReg(R6)  returns 0x20000384 (0000ms, 20189ms total)
T19EC 7752:510 JLINK_ReadReg(R7)  returns 0x0000D7A3 (0000ms, 20189ms total)
T19EC 7752:510 JLINK_ReadReg(R8)  returns 0xFFFFFFFF (0000ms, 20189ms total)
T19EC 7752:510 JLINK_ReadReg(R9)  returns 0x00000002 (0000ms, 20189ms total)
T19EC 7752:510 JLINK_ReadReg(R10)  returns 0x00003FFF (0000ms, 20189ms total)
T19EC 7752:510 JLINK_ReadReg(R11)  returns 0x00000000 (0000ms, 20189ms total)
T19EC 7752:510 JLINK_ReadReg(R12)  returns 0x00000000 (0000ms, 20189ms total)
T19EC 7752:510 JLINK_ReadReg(R13 (SP))  returns 0x200014A8 (0000ms, 20189ms total)
T19EC 7752:510 JLINK_ReadReg(R14)  returns 0x0800C42D (0000ms, 20189ms total)
T19EC 7752:510 JLINK_ReadReg(R15 (PC))  returns 0x0800C74A (0000ms, 20189ms total)
T19EC 7752:510 JLINK_ReadReg(XPSR)  returns 0x21000000 (0000ms, 20189ms total)
T19EC 7752:510 JLINK_ReadReg(MSP)  returns 0x2000B628 (0000ms, 20189ms total)
T19EC 7752:510 JLINK_ReadReg(PSP)  returns 0x200014A8 (0000ms, 20189ms total)
T19EC 7752:510 JLINK_ReadReg(CFBP)  returns 0x02000000 (0000ms, 20189ms total)
T19EC 7752:510 JLINK_ReadReg(FPSCR)  returns 0x03000000 (0003ms, 20192ms total)
T19EC 7752:513 JLINK_ReadReg(FPS0)  returns 0x00000000 (0000ms, 20192ms total)
T19EC 7752:513 JLINK_ReadReg(FPS1)  returns 0x00000000 (0000ms, 20192ms total)
T19EC 7752:513 JLINK_ReadReg(FPS2)  returns 0x00000000 (0000ms, 20192ms total)
T19EC 7752:513 JLINK_ReadReg(FPS3)  returns 0x00000000 (0000ms, 20192ms total)
T19EC 7752:513 JLINK_ReadReg(FPS4)  returns 0x00000000 (0000ms, 20192ms total)
T19EC 7752:513 JLINK_ReadReg(FPS5)  returns 0x00000000 (0000ms, 20192ms total)
T19EC 7752:513 JLINK_ReadReg(FPS6)  returns 0x00000000 (0000ms, 20192ms total)
T19EC 7752:513 JLINK_ReadReg(FPS7)  returns 0x00000000 (0000ms, 20192ms total)
T19EC 7752:513 JLINK_ReadReg(FPS8)  returns 0x00000000 (0000ms, 20192ms total)
T19EC 7752:513 JLINK_ReadReg(FPS9)  returns 0x00000000 (0000ms, 20192ms total)
T19EC 7752:513 JLINK_ReadReg(FPS10)  returns 0x00000000 (0000ms, 20192ms total)
T19EC 7752:513 JLINK_ReadReg(FPS11)  returns 0x00000000 (0000ms, 20192ms total)
T19EC 7752:513 JLINK_ReadReg(FPS12)  returns 0x00000000 (0000ms, 20192ms total)
T19EC 7752:513 JLINK_ReadReg(FPS13)  returns 0x00000000 (0000ms, 20192ms total)
T19EC 7752:513 JLINK_ReadReg(FPS14)  returns 0x00000000 (0000ms, 20192ms total)
T19EC 7752:513 JLINK_ReadReg(FPS15)  returns 0x00000000 (0000ms, 20192ms total)
T19EC 7752:513 JLINK_ReadReg(FPS16)  returns 0x00000000 (0000ms, 20192ms total)
T19EC 7752:513 JLINK_ReadReg(FPS17)  returns 0x00000000 (0000ms, 20192ms total)
T19EC 7752:513 JLINK_ReadReg(FPS18)  returns 0x00000000 (0000ms, 20192ms total)
T19EC 7752:513 JLINK_ReadReg(FPS19)  returns 0x00000000 (0000ms, 20192ms total)
T19EC 7752:513 JLINK_ReadReg(FPS20)  returns 0x00000000 (0000ms, 20192ms total)
T19EC 7752:513 JLINK_ReadReg(FPS21)  returns 0x00000000 (0000ms, 20192ms total)
T19EC 7752:513 JLINK_ReadReg(FPS22)  returns 0x00000000 (0000ms, 20192ms total)
T19EC 7752:513 JLINK_ReadReg(FPS23)  returns 0x00000000 (0000ms, 20192ms total)
T19EC 7752:513 JLINK_ReadReg(FPS24)  returns 0x00000000 (0000ms, 20192ms total)
T19EC 7752:513 JLINK_ReadReg(FPS25)  returns 0x00000000 (0000ms, 20192ms total)
T19EC 7752:513 JLINK_ReadReg(FPS26)  returns 0x00000000 (0000ms, 20192ms total)
T19EC 7752:513 JLINK_ReadReg(FPS27)  returns 0x00000000 (0000ms, 20192ms total)
T19EC 7752:513 JLINK_ReadReg(FPS28)  returns 0x00000000 (0000ms, 20192ms total)
T19EC 7752:513 JLINK_ReadReg(FPS29)  returns 0x00000000 (0000ms, 20192ms total)
T19EC 7752:513 JLINK_ReadReg(FPS30)  returns 0x00000000 (0000ms, 20192ms total)
T19EC 7752:513 JLINK_ReadReg(FPS31)  returns 0x00000000 (0000ms, 20192ms total)
T048C 7752:514 JLINK_ReadMemEx(0x200014BC, 0x0004 Bytes, ..., Flags = 0x02000000) -- CPU_ReadMem(64 bytes @ 0x20001480) -- Updating C cache (64 bytes @ 0x20001480) -- Read from C cache (4 bytes @ 0x200014BC) - Data: C5 EE 00 08  returns 0x04 (0001ms, 20193ms total)
T048C 7752:515 JLINK_ReadMemEx(0x200014A8, 0x0004 Bytes, ..., Flags = 0x02000000) -- Read from C cache (4 bytes @ 0x200014A8) - Data: A3 D7 00 00  returns 0x04 (0000ms, 20193ms total)
T048C 7752:515 JLINK_ReadMemEx(0x200014AC, 0x0004 Bytes, ..., Flags = 0x02000000) -- Read from C cache (4 bytes @ 0x200014AC) - Data: 00 00 00 00  returns 0x04 (0000ms, 20193ms total)
T048C 7752:515 JLINK_ReadMemEx(0x200014B0, 0x0004 Bytes, ..., Flags = 0x02000000) -- Read from C cache (4 bytes @ 0x200014B0) - Data: 1C 30 00 20  returns 0x04 (0000ms, 20193ms total)
T048C 7752:515 JLINK_ReadMemEx(0x200014B4, 0x0004 Bytes, ..., Flags = 0x02000000) -- Read from C cache (4 bytes @ 0x200014B4) - Data: 84 03 00 20  returns 0x04 (0000ms, 20193ms total)
T048C 7752:515 JLINK_ReadMemEx(0x200014B8, 0x0004 Bytes, ..., Flags = 0x02000000) -- Read from C cache (4 bytes @ 0x200014B8) - Data: FF FF FF FF  returns 0x04 (0000ms, 20193ms total)
T048C 7752:515 JLINK_ReadMemEx(0x200014F4, 0x0004 Bytes, ..., Flags = 0x02000000) -- CPU_ReadMem(64 bytes @ 0x200014C0) -- Updating C cache (64 bytes @ 0x200014C0) -- Read from C cache (4 bytes @ 0x200014F4) - Data: 7D EF 00 08  returns 0x04 (0001ms, 20194ms total)
T048C 7752:516 JLINK_ReadMemEx(0x200014D0, 0x0004 Bytes, ..., Flags = 0x02000000) -- Read from C cache (4 bytes @ 0x200014D0) - Data: 5C 15 00 20  returns 0x04 (0000ms, 20194ms total)
T048C 7752:516 JLINK_ReadMemEx(0x200014D4, 0x0004 Bytes, ..., Flags = 0x02000000) -- Read from C cache (4 bytes @ 0x200014D4) - Data: 00 00 00 00  returns 0x04 (0000ms, 20194ms total)
T048C 7752:516 JLINK_ReadMemEx(0x200014D8, 0x0004 Bytes, ..., Flags = 0x02000000) -- Read from C cache (4 bytes @ 0x200014D8) - Data: 1C 30 00 20  returns 0x04 (0000ms, 20194ms total)
T048C 7752:516 JLINK_ReadMemEx(0x200014DC, 0x0004 Bytes, ..., Flags = 0x02000000) -- Read from C cache (4 bytes @ 0x200014DC) - Data: 10 00 00 00  returns 0x04 (0000ms, 20194ms total)
T048C 7752:516 JLINK_ReadMemEx(0x200014E0, 0x0004 Bytes, ..., Flags = 0x02000000) -- Read from C cache (4 bytes @ 0x200014E0) - Data: 84 03 00 20  returns 0x04 (0000ms, 20194ms total)
T048C 7752:516 JLINK_ReadMemEx(0x200014E4, 0x0004 Bytes, ..., Flags = 0x02000000) -- Read from C cache (4 bytes @ 0x200014E4) - Data: 00 00 00 00  returns 0x04 (0000ms, 20194ms total)
T048C 7752:516 JLINK_ReadMemEx(0x200014E8, 0x0004 Bytes, ..., Flags = 0x02000000) -- Read from C cache (4 bytes @ 0x200014E8) - Data: 02 00 00 00  returns 0x04 (0000ms, 20194ms total)
T048C 7752:516 JLINK_ReadMemEx(0x200014EC, 0x0004 Bytes, ..., Flags = 0x02000000) -- Read from C cache (4 bytes @ 0x200014EC) - Data: 00 00 00 00  returns 0x04 (0000ms, 20194ms total)
T048C 7752:516 JLINK_ReadMemEx(0x20001534, 0x0004 Bytes, ..., Flags = 0x02000000) -- CPU_ReadMem(64 bytes @ 0x20001500) -- Updating C cache (64 bytes @ 0x20001500) -- Read from C cache (4 bytes @ 0x20001534) - Data: E9 CE 00 08  returns 0x04 (0001ms, 20195ms total)
T048C 7752:517 JLINK_ReadMemEx(0x20001514, 0x0004 Bytes, ..., Flags = 0x02000000) -- Read from C cache (4 bytes @ 0x20001514) - Data: 04 30 00 20  returns 0x04 (0000ms, 20195ms total)
T048C 7752:517 JLINK_ReadMemEx(0x20001518, 0x0004 Bytes, ..., Flags = 0x02000000) -- Read from C cache (4 bytes @ 0x20001518) - Data: 08 16 00 20  returns 0x04 (0000ms, 20195ms total)
T048C 7752:517 JLINK_ReadMemEx(0x2000151C, 0x0004 Bytes, ..., Flags = 0x02000000) -- Read from C cache (4 bytes @ 0x2000151C) - Data: BC 2F 00 20  returns 0x04 (0000ms, 20195ms total)
T048C 7752:517 JLINK_ReadMemEx(0x20001520, 0x0004 Bytes, ..., Flags = 0x02000000) -- Read from C cache (4 bytes @ 0x20001520) - Data: 07 00 00 00  returns 0x04 (0000ms, 20195ms total)
T048C 7752:517 JLINK_ReadMemEx(0x20001524, 0x0004 Bytes, ..., Flags = 0x02000000) -- Read from C cache (4 bytes @ 0x20001524) - Data: 00 00 00 00  returns 0x04 (0000ms, 20195ms total)
T048C 7752:517 JLINK_ReadMemEx(0x20001528, 0x0004 Bytes, ..., Flags = 0x02000000) -- Read from C cache (4 bytes @ 0x20001528) - Data: BC 2F 00 20  returns 0x04 (0000ms, 20195ms total)
T048C 7752:517 JLINK_ReadMemEx(0x2000152C, 0x0004 Bytes, ..., Flags = 0x02000000) -- Read from C cache (4 bytes @ 0x2000152C) - Data: 84 03 00 20  returns 0x04 (0000ms, 20195ms total)
T048C 7752:517 JLINK_ReadMemEx(0x20001530, 0x0004 Bytes, ..., Flags = 0x02000000) -- Read from C cache (4 bytes @ 0x20001530) - Data: EF BE AD DE  returns 0x04 (0000ms, 20195ms total)
T048C 7752:517 JLINK_ReadMemEx(0x20001584, 0x0004 Bytes, ..., Flags = 0x02000000) -- CPU_ReadMem(64 bytes @ 0x20001580) -- Updating C cache (64 bytes @ 0x20001580) -- Read from C cache (4 bytes @ 0x20001584) - Data: 63 D4 00 08  returns 0x04 (0001ms, 20196ms total)
T048C 7752:518 JLINK_ReadMemEx(0x20001564, 0x0004 Bytes, ..., Flags = 0x02000000) -- CPU_ReadMem(64 bytes @ 0x20001540) -- Updating C cache (64 bytes @ 0x20001540) -- Read from C cache (4 bytes @ 0x20001564) - Data: 04 30 00 20  returns 0x04 (0001ms, 20197ms total)
T048C 7752:519 JLINK_ReadMemEx(0x20001568, 0x0004 Bytes, ..., Flags = 0x02000000) -- Read from C cache (4 bytes @ 0x20001568) - Data: E8 FE 00 08  returns 0x04 (0000ms, 20197ms total)
T048C 7752:519 JLINK_ReadMemEx(0x2000156C, 0x0004 Bytes, ..., Flags = 0x02000000) -- Read from C cache (4 bytes @ 0x2000156C) - Data: BC 2F 00 20  returns 0x04 (0000ms, 20197ms total)
T048C 7752:519 JLINK_ReadMemEx(0x20001570, 0x0004 Bytes, ..., Flags = 0x02000000) -- Read from C cache (4 bytes @ 0x20001570) - Data: 07 00 00 00  returns 0x04 (0000ms, 20197ms total)
T048C 7752:519 JLINK_ReadMemEx(0x20001574, 0x0004 Bytes, ..., Flags = 0x02000000) -- Read from C cache (4 bytes @ 0x20001574) - Data: EF BE AD DE  returns 0x04 (0000ms, 20197ms total)
T048C 7752:519 JLINK_ReadMemEx(0x20001578, 0x0004 Bytes, ..., Flags = 0x02000000) -- Read from C cache (4 bytes @ 0x20001578) - Data: EF BE AD DE  returns 0x04 (0000ms, 20197ms total)
T048C 7752:519 JLINK_ReadMemEx(0x2000157C, 0x0004 Bytes, ..., Flags = 0x02000000) -- Read from C cache (4 bytes @ 0x2000157C) - Data: EF BE AD DE  returns 0x04 (0000ms, 20197ms total)
T048C 7752:519 JLINK_ReadMemEx(0x20001580, 0x0004 Bytes, ..., Flags = 0x02000000) -- Read from C cache (4 bytes @ 0x20001580) - Data: EF BE AD DE  returns 0x04 (0000ms, 20197ms total)
T048C 7752:519 JLINK_ReadMemEx(0x2000159C, 0x0004 Bytes, ..., Flags = 0x02000000) -- Read from C cache (4 bytes @ 0x2000159C) - Data: CF FE 00 08  returns 0x04 (0000ms, 20197ms total)
T048C 7752:519 JLINK_ReadMemEx(0x20001588, 0x0004 Bytes, ..., Flags = 0x02000000) -- Read from C cache (4 bytes @ 0x20001588) - Data: BC 2F 00 20  returns 0x04 (0000ms, 20197ms total)
T048C 7752:519 JLINK_ReadMemEx(0x2000158C, 0x0004 Bytes, ..., Flags = 0x02000000) -- Read from C cache (4 bytes @ 0x2000158C) - Data: BC 2F 00 20  returns 0x04 (0000ms, 20197ms total)
T048C 7752:519 JLINK_ReadMemEx(0x20001590, 0x0004 Bytes, ..., Flags = 0x02000000) -- Read from C cache (4 bytes @ 0x20001590) - Data: 08 16 00 20  returns 0x04 (0000ms, 20197ms total)
T048C 7752:519 JLINK_ReadMemEx(0x20001594, 0x0004 Bytes, ..., Flags = 0x02000000) -- Read from C cache (4 bytes @ 0x20001594) - Data: 5C 2E 00 20  returns 0x04 (0000ms, 20197ms total)
T048C 7752:519 JLINK_ReadMemEx(0x20001598, 0x0004 Bytes, ..., Flags = 0x02000000) -- Read from C cache (4 bytes @ 0x20001598) - Data: EF BE AD DE  returns 0x04 (0000ms, 20197ms total)
T048C 7752:519 JLINK_ReadMemEx(0x200015BC, 0x0004 Bytes, ..., Flags = 0x02000000) -- Read from C cache (4 bytes @ 0x200015BC) - Data: 45 21 01 08  returns 0x04 (0000ms, 20197ms total)
T048C 7752:519 JLINK_ReadMemEx(0x200015AC, 0x0004 Bytes, ..., Flags = 0x02000000) -- Read from C cache (4 bytes @ 0x200015AC) - Data: EF BE AD DE  returns 0x04 (0000ms, 20197ms total)
T048C 7752:520 JLINK_ReadMemEx(0x200015B0, 0x0004 Bytes, ..., Flags = 0x02000000) -- Read from C cache (4 bytes @ 0x200015B0) - Data: EF BE AD DE  returns 0x04 (0000ms, 20197ms total)
T048C 7752:520 JLINK_ReadMemEx(0x200015B4, 0x0004 Bytes, ..., Flags = 0x02000000) -- Read from C cache (4 bytes @ 0x200015B4) - Data: EF BE AD DE  returns 0x04 (0000ms, 20197ms total)
T048C 7752:520 JLINK_ReadMemEx(0x200015B8, 0x0004 Bytes, ..., Flags = 0x02000000) -- Read from C cache (4 bytes @ 0x200015B8) - Data: EF BE AD DE  returns 0x04 (0000ms, 20197ms total)
T048C 7752:520 JLINK_ReadMemEx(0x200015C4, 0x0004 Bytes, ..., Flags = 0x02000000) -- CPU_ReadMem(64 bytes @ 0x200015C0) -- Updating C cache (64 bytes @ 0x200015C0) -- Read from C cache (4 bytes @ 0x200015C4) - Data: 79 40 01 08  returns 0x04 (0001ms, 20198ms total)
T048C 7752:521 JLINK_ReadMemEx(0x200015DC, 0x0004 Bytes, ..., Flags = 0x02000000) -- Read from C cache (4 bytes @ 0x200015DC) - Data: 00 00 00 00  returns 0x04 (0000ms, 20198ms total)
T048C 7752:532 JLINK_ReadMemEx(0x0800C74A, 0x0002 Bytes, ..., Flags = 0x02000000) -- CPU_ReadMem(64 bytes @ 0x0800C740) -- Updating C cache (64 bytes @ 0x0800C740) -- Read from C cache (2 bytes @ 0x0800C74A) - Data: 10 68  returns 0x02 (0001ms, 20199ms total)
T048C 7752:533 JLINK_ReadMemEx(0x0800C74C, 0x003C Bytes, ..., Flags = 0x02000000) -- CPU_ReadMem(64 bytes @ 0x0800C780) -- Updating C cache (64 bytes @ 0x0800C780) -- Read from C cache (60 bytes @ 0x0800C74C) - Data: 88 42 02 D8 50 68 88 42 02 D2 4F F0 FF 30 F5 E7 ...  returns 0x3C (0001ms, 20200ms total)
T19EC 7757:591 JLINK_ReadMemEx(0x0800C74A, 0x0002 Bytes, ..., Flags = 0x02000000) -- Read from C cache (2 bytes @ 0x0800C74A) - Data: 10 68  returns 0x02 (0000ms, 20200ms total)
T19EC 7757:591 JLINK_Step() -- Read from C cache (2 bytes @ 0x0800C74A) -- CPU_ReadMem(4 bytes @ 0xE000ED18) -- CPU_WriteMem(4 bytes @ 0xE000ED18) -- CPU_ReadMem(4 bytes @ 0xE000ED18) -- CPU_WriteMem(4 bytes @ 0xE000ED18) -- CPU_ReadMem(4 bytes @ 0xE0001004) -- CPU_ReadMem(64 bytes @ 0x20000380) -- Updating C cache (64 bytes @ 0x20000380) -- Read from C cache (4 bytes @ 0x20000384) -- Simulated  returns 0x00 (0007ms, 20207ms total)
T19EC 7757:598 JLINK_ReadReg(R15 (PC))  returns 0x0800C74C (0000ms, 20207ms total)
T19EC 7757:598 JLINK_ReadReg(XPSR)  returns 0x21000000 (0000ms, 20207ms total)
T19EC 7757:598 JLINK_Step() -- Read from C cache (2 bytes @ 0x0800C74C) -- Simulated  returns 0x00 (0000ms, 20207ms total)
T19EC 7757:598 JLINK_ReadReg(R15 (PC))  returns 0x0800C74E (0000ms, 20207ms total)
T19EC 7757:598 JLINK_ReadReg(XPSR)  returns 0x81000000 (0000ms, 20207ms total)
T19EC 7757:598 JLINK_Step() -- Read from C cache (2 bytes @ 0x0800C74E) -- Simulated  returns 0x00 (0000ms, 20207ms total)
T19EC 7757:598 JLINK_ReadReg(R15 (PC))  returns 0x0800C750 (0000ms, 20207ms total)
T19EC 7757:598 JLINK_ReadReg(XPSR)  returns 0x81000000 (0000ms, 20207ms total)
T19EC 7757:598 JLINK_ReadMemEx(0x0800C750, 0x003C Bytes, ..., Flags = 0x02000000) -- Read from C cache (60 bytes @ 0x0800C750) - Data: 50 68 88 42 02 D2 4F F0 FF 30 F5 E7 18 7A F3 E7 ...  returns 0x3C (0000ms, 20207ms total)
T19EC 7757:598 JLINK_ReadMemEx(0x0800C750, 0x0002 Bytes, ..., Flags = 0x02000000) -- Read from C cache (2 bytes @ 0x0800C750) - Data: 50 68  returns 0x02 (0000ms, 20207ms total)
T19EC 7757:598 JLINK_ReadMemEx(0x0800C752, 0x0002 Bytes, ..., Flags = 0x02000000) -- Read from C cache (2 bytes @ 0x0800C752) - Data: 88 42  returns 0x02 (0000ms, 20207ms total)
T19EC 7757:598 JLINK_Step() -- Read from C cache (2 bytes @ 0x0800C750) -- Read from C cache (4 bytes @ 0x20000388) -- Simulated  returns 0x00 (0000ms, 20207ms total)
T19EC 7757:598 JLINK_ReadReg(R15 (PC))  returns 0x0800C752 (0000ms, 20207ms total)
T19EC 7757:598 JLINK_ReadReg(XPSR)  returns 0x81000000 (0000ms, 20207ms total)
T19EC 7757:598 JLINK_ReadMemEx(0x0800C752, 0x0002 Bytes, ..., Flags = 0x02000000) -- Read from C cache (2 bytes @ 0x0800C752) - Data: 88 42  returns 0x02 (0000ms, 20207ms total)
T19EC 7757:598 JLINK_ReadMemEx(0x0800C754, 0x003C Bytes, ..., Flags = 0x02000000) -- Read from C cache (60 bytes @ 0x0800C754) - Data: 02 D2 4F F0 FF 30 F5 E7 18 7A F3 E7 00 21 41 60 ...  returns 0x3C (0001ms, 20208ms total)
T19EC 7757:599 JLINK_ReadMemEx(0x0800C754, 0x0002 Bytes, ..., Flags = 0x02000000) -- Read from C cache (2 bytes @ 0x0800C754) - Data: 02 D2  returns 0x02 (0000ms, 20208ms total)
T19EC 7757:599 JLINK_Step() -- Read from C cache (2 bytes @ 0x0800C752) -- Simulated  returns 0x00 (0000ms, 20208ms total)
T19EC 7757:599 JLINK_ReadReg(R15 (PC))  returns 0x0800C754 (0000ms, 20208ms total)
T19EC 7757:599 JLINK_ReadReg(XPSR)  returns 0x21000000 (0000ms, 20208ms total)
T19EC 7757:599 JLINK_ReadMemEx(0x0800C754, 0x003C Bytes, ..., Flags = 0x02000000) -- Read from C cache (60 bytes @ 0x0800C754) - Data: 02 D2 4F F0 FF 30 F5 E7 18 7A F3 E7 00 21 41 60 ...  returns 0x3C (0000ms, 20208ms total)
T19EC 7757:599 JLINK_ReadMemEx(0x0800C754, 0x0002 Bytes, ..., Flags = 0x02000000) -- Read from C cache (2 bytes @ 0x0800C754) - Data: 02 D2  returns 0x02 (0000ms, 20208ms total)
T19EC 7757:599 JLINK_ReadMemEx(0x0800C756, 0x0002 Bytes, ..., Flags = 0x02000000) -- Read from C cache (2 bytes @ 0x0800C756) - Data: 4F F0  returns 0x02 (0000ms, 20208ms total)
T19EC 7757:599 JLINK_Step() -- Read from C cache (2 bytes @ 0x0800C754) -- Simulated  returns 0x00 (0000ms, 20208ms total)
T19EC 7757:599 JLINK_ReadReg(R15 (PC))  returns 0x0800C75C (0000ms, 20208ms total)
T19EC 7757:599 JLINK_ReadReg(XPSR)  returns 0x21000000 (0000ms, 20208ms total)
T19EC 7757:599 JLINK_ReadReg(R0)  returns 0x0000FEFE (0000ms, 20208ms total)
T19EC 7757:599 JLINK_ReadReg(R1)  returns 0x0000D7A3 (0000ms, 20208ms total)
T19EC 7757:599 JLINK_ReadReg(R2)  returns 0x20000384 (0000ms, 20208ms total)
T19EC 7757:599 JLINK_ReadReg(R3)  returns 0x0801B9F0 (0000ms, 20208ms total)
T19EC 7757:599 JLINK_ReadReg(R4)  returns 0x20000384 (0000ms, 20208ms total)
T19EC 7757:599 JLINK_ReadReg(R5)  returns 0x00000000 (0000ms, 20208ms total)
T19EC 7757:599 JLINK_ReadReg(R6)  returns 0x20000384 (0000ms, 20208ms total)
T19EC 7757:599 JLINK_ReadReg(R7)  returns 0x0000D7A3 (0000ms, 20208ms total)
T19EC 7757:599 JLINK_ReadReg(R8)  returns 0xFFFFFFFF (0000ms, 20208ms total)
T19EC 7757:599 JLINK_ReadReg(R9)  returns 0x00000002 (0000ms, 20208ms total)
T19EC 7757:599 JLINK_ReadReg(R10)  returns 0x00003FFF (0000ms, 20208ms total)
T19EC 7757:599 JLINK_ReadReg(R11)  returns 0x00000000 (0000ms, 20208ms total)
T19EC 7757:599 JLINK_ReadReg(R12)  returns 0x00000000 (0000ms, 20208ms total)
T19EC 7757:599 JLINK_ReadReg(R13 (SP))  returns 0x200014A8 (0000ms, 20208ms total)
T19EC 7757:599 JLINK_ReadReg(R14)  returns 0x0800C42D (0000ms, 20208ms total)
T19EC 7757:599 JLINK_ReadReg(R15 (PC))  returns 0x0800C75C (0000ms, 20208ms total)
T19EC 7757:599 JLINK_ReadReg(XPSR)  returns 0x21000000 (0000ms, 20208ms total)
T19EC 7757:599 JLINK_ReadReg(MSP)  returns 0x2000B628 (0000ms, 20208ms total)
T19EC 7757:599 JLINK_ReadReg(PSP)  returns 0x200014A8 (0000ms, 20208ms total)
T19EC 7757:599 JLINK_ReadReg(CFBP)  returns 0x02000000 (0000ms, 20208ms total)
T19EC 7757:599 JLINK_ReadReg(FPSCR)  returns 0x03000000 (0000ms, 20208ms total)
T19EC 7757:599 JLINK_ReadReg(FPS0)  returns 0x00000000 (0000ms, 20208ms total)
T19EC 7757:599 JLINK_ReadReg(FPS1)  returns 0x00000000 (0000ms, 20208ms total)
T19EC 7757:599 JLINK_ReadReg(FPS2)  returns 0x00000000 (0000ms, 20208ms total)
T19EC 7757:599 JLINK_ReadReg(FPS3)  returns 0x00000000 (0000ms, 20208ms total)
T19EC 7757:599 JLINK_ReadReg(FPS4)  returns 0x00000000 (0000ms, 20208ms total)
T19EC 7757:599 JLINK_ReadReg(FPS5)  returns 0x00000000 (0000ms, 20208ms total)
T19EC 7757:599 JLINK_ReadReg(FPS6)  returns 0x00000000 (0000ms, 20208ms total)
T19EC 7757:599 JLINK_ReadReg(FPS7)  returns 0x00000000 (0000ms, 20208ms total)
T19EC 7757:599 JLINK_ReadReg(FPS8)  returns 0x00000000 (0000ms, 20208ms total)
T19EC 7757:599 JLINK_ReadReg(FPS9)  returns 0x00000000 (0000ms, 20208ms total)
T19EC 7757:599 JLINK_ReadReg(FPS10)  returns 0x00000000 (0000ms, 20208ms total)
T19EC 7757:599 JLINK_ReadReg(FPS11)  returns 0x00000000 (0000ms, 20208ms total)
T19EC 7757:599 JLINK_ReadReg(FPS12)  returns 0x00000000 (0000ms, 20208ms total)
T19EC 7757:599 JLINK_ReadReg(FPS13)  returns 0x00000000 (0000ms, 20208ms total)
T19EC 7757:599 JLINK_ReadReg(FPS14)  returns 0x00000000 (0000ms, 20208ms total)
T19EC 7757:599 JLINK_ReadReg(FPS15)  returns 0x00000000 (0000ms, 20208ms total)
T19EC 7757:599 JLINK_ReadReg(FPS16)  returns 0x00000000 (0000ms, 20208ms total)
T19EC 7757:599 JLINK_ReadReg(FPS17)  returns 0x00000000 (0000ms, 20208ms total)
T19EC 7757:599 JLINK_ReadReg(FPS18)  returns 0x00000000 (0000ms, 20208ms total)
T19EC 7757:599 JLINK_ReadReg(FPS19)  returns 0x00000000 (0000ms, 20208ms total)
T19EC 7757:599 JLINK_ReadReg(FPS20)  returns 0x00000000 (0000ms, 20208ms total)
T19EC 7757:599 JLINK_ReadReg(FPS21)  returns 0x00000000 (0000ms, 20208ms total)
T19EC 7757:599 JLINK_ReadReg(FPS22)  returns 0x00000000 (0000ms, 20208ms total)
T19EC 7757:599 JLINK_ReadReg(FPS23)  returns 0x00000000 (0000ms, 20208ms total)
T19EC 7757:599 JLINK_ReadReg(FPS24)  returns 0x00000000 (0000ms, 20208ms total)
T19EC 7757:599 JLINK_ReadReg(FPS25)  returns 0x00000000 (0000ms, 20208ms total)
T19EC 7757:599 JLINK_ReadReg(FPS26)  returns 0x00000000 (0000ms, 20208ms total)
T19EC 7757:599 JLINK_ReadReg(FPS27)  returns 0x00000000 (0000ms, 20208ms total)
T19EC 7757:599 JLINK_ReadReg(FPS28)  returns 0x00000000 (0000ms, 20208ms total)
T19EC 7757:599 JLINK_ReadReg(FPS29)  returns 0x00000000 (0001ms, 20209ms total)
T19EC 7757:600 JLINK_ReadReg(FPS30)  returns 0x00000000 (0000ms, 20209ms total)
T19EC 7757:600 JLINK_ReadReg(FPS31)  returns 0x00000000 (0000ms, 20209ms total)
T048C 7757:600 JLINK_ReadMemEx(0x200014BC, 0x0004 Bytes, ..., Flags = 0x02000000) -- Read from C cache (4 bytes @ 0x200014BC) - Data: C5 EE 00 08  returns 0x04 (0000ms, 20209ms total)
T048C 7757:600 JLINK_ReadMemEx(0x200014A8, 0x0004 Bytes, ..., Flags = 0x02000000) -- Read from C cache (4 bytes @ 0x200014A8) - Data: A3 D7 00 00  returns 0x04 (0000ms, 20209ms total)
T048C 7757:600 JLINK_ReadMemEx(0x200014AC, 0x0004 Bytes, ..., Flags = 0x02000000) -- Read from C cache (4 bytes @ 0x200014AC) - Data: 00 00 00 00  returns 0x04 (0000ms, 20209ms total)
T048C 7757:600 JLINK_ReadMemEx(0x200014B0, 0x0004 Bytes, ..., Flags = 0x02000000) -- Read from C cache (4 bytes @ 0x200014B0) - Data: 1C 30 00 20  returns 0x04 (0000ms, 20209ms total)
T048C 7757:600 JLINK_ReadMemEx(0x200014B4, 0x0004 Bytes, ..., Flags = 0x02000000) -- Read from C cache (4 bytes @ 0x200014B4) - Data: 84 03 00 20  returns 0x04 (0000ms, 20209ms total)
T048C 7757:600 JLINK_ReadMemEx(0x200014B8, 0x0004 Bytes, ..., Flags = 0x02000000) -- Read from C cache (4 bytes @ 0x200014B8) - Data: FF FF FF FF  returns 0x04 (0000ms, 20209ms total)
T048C 7757:600 JLINK_ReadMemEx(0x200014F4, 0x0004 Bytes, ..., Flags = 0x02000000) -- Read from C cache (4 bytes @ 0x200014F4) - Data: 7D EF 00 08  returns 0x04 (0000ms, 20209ms total)
